Rx:001062-01 04 9A 00 7B 00 31 01 BC 01 A3 00 F5 01 D5 00 2D 00 E9 00 0F 02 ED 01 EA 00 D7 00 F9 00 91 00 91 00 F9 02 85 02 89 00 AF 03 51 01 5D 00 5F 01 E9 02 85 01 5D 02 67 01 F3 02 A7 FF A4 00 83 FF EB 00 E7 00 78 00 47 FF D1 00 6F 00 78 00 47 02 2A 00 6F 01 A7 00 57 00 BC 01 44 00 37 02 A6 00 17 01 4D 08 55 0D 19 03 69 03 78 00 5C 03 A5 02 2E 02 7C 06 82 00 14 04 BA 03 03 19 28 13 F7 04 D8 1E 5B 02 E4 03 6C 00 E7 13 F7 04 D8 88 20 00 03 AE C3 00 0B FB 60 B2 37 62 19 00 96 FC 71 
Tx:001063-01 05 00 00 00 00 CD CA 
Rx:001064-01 05 00 00 00 00 CD CA 
Tx:001065-01 06 2F FF 00 02 30 EF 
Rx:001066-01 06 2F FF 00 02 30 EF 
Tx:001067-01 01 00 00 00 31 FD DE 
Rx:001068-01 01 07 16 80 B2 DA 7D 07 01 55 5F 
Tx:001069-01 02 0F FF 00 0A CB 29 
Rx:001070-01 02 02 2D 00 A4 E8 
Tx:001071-01 03 2F FF 00 5A FD 15 
Rx:001072-01 03 B4 00 02 00 EA 00 2C 31 36 33 32 48 32 4D 4F 07 DC 01 A5 DB 8A 2F AA 31 36 33 32 31 32 32 33 31 36 33 32 32 38 37 33 00 0A FF FF C0 A8 00 02 07 E4 08 06 00 0C 10 15 B2 6E 10 10 30 39 20 20 02 2B 00 7B 02 1F 01 41 02 8E 01 41 03 09 03 15 00 E7 03 82 01 41 01 BD 01 55 02 99 03 07 02 F4 00 7B 01 B3 02 8E 01 3C 03 64 03 D4 02 23 02 FB 00 BB 00 C6 03 13 03 DD 00 84 00 8D 00 A5 01 14 01 2A 01 8E 01 F2 02 BA 02 56 01 5C 03 19 03 09 00 02 00 64 13 18 00 32 00 05 00 36 00 0A 00 05 00 0C 00 2E 00 23 00 2C 00 43 0B B8 00 2F 00 64 00 50 00 FA 02 58 E7 A7 
Tx:001073-01 04 1F FF 00 4D 07 DB 
Rx:001074-01 04 9A 00 7B 00 31 01 BC 01 A3 00 F5 01 D5 00 2D 00 E9 00 0F 02 ED 01 EA 00 D7 00 F9 00 91 00 91 00 F9 02 85 02 89 00 AF 03 51 01 5D 00 5F 01 E9 02 85 01 5D 02 67 01 F3 02 A7 FF A4 00 83 FF EB 00 E7 00 78 00 47 FF D1 00 6F 00 78 00 47 02 2A 00 6F 01 A7 00 57 00 BC 01 44 00 37 02 A6 00 17 01 4D 08 55 0D 19 03 69 03 78 00 5C 03 A5 02 2E 02 7C 06 82 00 14 04 BA 03 03 19 28 13 F7 04 D8 1E 5B 02 E4 03 6C 00 E7 13 F7 04 D8 88 20 00 03 AE C3 00 0B FB 60 B2 37 62 19 00 96 FC 71 
Tx:001075-01 05 00 00 00 00 CD CA 
Rx:001076-01 05 00 00 00 00 CD CA 
Tx:001077-01 06 2F FF 00 02 30 EF 
Rx:001078-01 06 2F FF 00 02 30 EF 
Tx:001079-01 01 00 00 00 31 FD DE 
Rx:001080-01 01 07 16 80 B2 DA 7D 07 01 55 5F 
Tx:001081-01 02 0F FF 00 0A CB 29 
Rx:001082-01 02 02 2D 00 A4 E8 
Tx:001083-01 03 2F FF 00 5A FD 15 
Rx:001084-01 03 B4 00 02 00 EA 00 2C 31 36 33 32 48 32 4D 4F 07 DC 01 A5 DB 8A 2F AA 31 36 33 32 31 32 32 33 31 36 33 32 32 38 37 33 00 0A FF FF C0 A8 00 02 07 E4 08 06 00 0C 10 15 B2 6E 10 10 30 39 20 20 02 2B 00 7B 02 1F 01 41 02 8E 01 41 03 09 03 15 00 E7 03 82 01 41 01 BD 01 55 02 99 03 07 02 F4 00 7B 01 B3 02 8E 01 3C 03 64 03 D4 02 23 02 FB 00 BB 00 C6 03 13 03 DD 00 84 00 8D 00 A5 01 14 01 2A 01 8E 01 F2 02 BA 02 56 01 5C 03 19 03 09 00 02 00 64 13 18 00 32 00 05 00 36 00 0A 00 05 00 0C 00 2E 00 23 00 2C 00 43 0B B8 00 2F 00 64 00 50 00 FA 02 58 E7 A7 
Tx:001085-01 04 1F FF 00 4D 07 DB 
Rx:001086-01 04 9A 00 7B 00 31 01 BC 01 A3 00 F5 01 D5 00 2D 00 E9 00 0F 02 ED 01 EA 00 D7 00 F9 00 91 00 91 00 F9 02 85 02 89 00 AF 03 51 01 5D 00 5F 01 E9 02 85 01 5D 02 67 01 F3 02 A7 FF A4 00 83 FF EB 00 E7 00 78 00 47 FF D1 00 6F 00 78 00 47 02 2A 00 6F 01 A7 00 57 00 BC 01 44 00 37 02 A6 00 17 01 4D 08 55 0D 19 03 69 03 78 00 5C 03 A5 02 2E 02 7C 06 82 00 14 04 BA 03 03 19 28 13 F7 04 D8 1E 5B 02 E4 03 6C 00 E7 13 F7 04 D8 88 20 00 03 AE C3 00 0B FB 60 B2 37 62 19 00 96 FC 71 
Tx:001087-01 05 00 00 00 00 CD CA 
Rx:001088-01 05 00 00 00 00 CD CA 
Tx:001089-01 06 2F FF 00 02 30 EF 
Rx:001090-01 06 2F FF 00 02 30 EF 
Tx:001091-01 01 00 00 00 31 FD DE 
Rx:001092-01 01 07 16 80 B2 DA 7D 07 01 55 5F 
Tx:001093-01 02 0F FF 00 0A CB 29 
Rx:001094-01 02 02 2D 00 A4 E8 
Tx:001095-01 03 2F FF 00 5A FD 15 
Rx:001096-01 03 B4 00 02 00 EA 00 2C 31 36 33 32 48 32 4D 4F 07 DC 01 A5 DB 8A 2F AA 31 36 33 32 31 32 32 33 31 36 33 32 32 38 37 33 00 0A FF FF C0 A8 00 02 07 E4 08 06 00 0C 10 15 B2 6E 10 10 30 39 20 20 02 2B 00 7B 02 1F 01 41 02 8E 01 41 03 09 03 15 00 E7 03 82 01 41 01 BD 01 55 02 99 03 07 02 F4 00 7B 01 B3 02 8E 01 3C 03 64 03 D4 02 23 02 FB 00 BB 00 C6 03 13 03 DD 00 84 00 8D 00 A5 01 14 01 2A 01 8E 01 F2 02 BA 02 56 01 5C 03 19 03 09 00 02 00 64 13 18 00 32 00 05 00 36 00 0A 00 05 00 0C 00 2E 00 23 00 2C 00 43 0B B8 00 2F 00 64 00 50 00 FA 02 58 E7 A7 
Tx:001097-01 04 1F FF 00 4D 07 DB 
Rx:001098-01 04 9A 00 7B 00 31 01 BC 01 A3 00 F5 01 D5 00 2D 00 E9 00 0F 02 ED 01 EA 00 D7 00 F9 00 91 00 91 00 F9 02 85 02 89 00 AF 03 51 01 5D 00 5F 01 E9 02 85 01 5D 02 67 01 F3 02 A7 FF A4 00 83 FF EB 00 E7 00 78 00 47 FF D1 00 6F 00 78 00 47 02 2A 00 6F 01 A7 00 57 00 BC 01 44 00 37 02 A6 00 17 01 4D 08 55 0D 19 03 69 03 78 00 5C 03 A5 02 2E 02 7C 06 82 00 14 04 BA 03 03 19 28 13 F7 04 D8 1E 5B 02 E4 03 6C 00 E7 13 F7 04 D8 88 20 00 03 AE C3 00 0B FB 60 B2 37 62 19 00 96 FC 71 
Tx:001099-01 05 00 00 00 00 CD CA 
Rx:001100-01 05 00 00 00 00 CD CA 
Tx:001101-01 06 2F FF 00 02 30 EF 
Rx:001102-01 06 2F FF 00 02 30 EF 
Tx:001103-01 01 00 00 00 31 FD DE 
Rx:001104-01 01 07 16 80 B2 DA 7D 07 01 55 5F 
Tx:001105-01 02 0F FF 00 0A CB 29 
Rx:001106-01 02 02 2D 00 A4 E8 
Tx:001107-01 03 2F FF 00 5A FD 15 
Rx:001108-01 03 B4 00 02 00 EA 00 2C 31 36 33 32 48 32 4D 4F 07 DC 01 A5 DB 8A 2F AA 31 36 33 32 31 32 32 33 31 36 33 32 32 38 37 33 00 0A FF FF C0 A8 00 02 07 E4 08 06 00 0C 10 15 B2 6E 10 10 30 39 20 20 02 2B 00 7B 02 1F 01 41 02 8E 01 41 03 09 03 15 00 E7 03 82 01 41 01 BD 01 55 02 99 03 07 02 F4 00 7B 01 B3 02 8E 01 3C 03 64 03 D4 02 23 02 FB 00 BB 00 C6 03 13 03 DD 00 84 00 8D 00 A5 01 14 01 2A 01 8E 01 F2 02 BA 02 56 01 5C 03 19 03 09 00 02 00 64 13 18 00 32 00 05 00 36 00 0A 00 05 00 0C 00 2E 00 23 00 2C 00 43 0B B8 00 2F 00 64 00 50 00 FA 02 58 E7 A7 
Tx:001109-01 04 1F FF 00 4D 07 DB 
Rx:001110-01 04 9A 00 7B 00 31 01 BC 01 A3 00 F5 01 D5 00 2D 00 E9 00 0F 02 ED 01 EA 00 D7 00 F9 00 91 00 91 00 F9 02 85 02 89 00 AF 03 51 01 5D 00 5F 01 E9 02 85 01 5D 02 67 01 F3 02 A7 FF A4 00 83 FF EB 00 E7 00 78 00 47 FF D1 00 6F 00 78 00 47 02 2A 00 6F 01 A7 00 57 00 BC 01 44 00 37 02 A6 00 17 01 4D 08 55 0D 19 03 69 03 78 00 5C 03 A5 02 2E 02 7C 06 82 00 14 04 BA 03 03 19 28 13 F7 04 D8 1E 5B 02 E4 03 6C 00 E7 13 F7 04 D8 88 20 00 03 AE C3 00 0B FB 60 B2 37 62 19 00 96 FC 71 
Tx:001111-01 05 00 00 00 00 CD CA 
Rx:001112-01 05 00 00 00 00 CD CA 
Tx:001113-01 06 2F FF 00 02 30 EF 
Rx:001114-01 06 2F FF 00 02 30 EF 
Tx:001115-01 01 00 00 00 31 FD DE 
Rx:001116-01 01 07 16 80 B2 DA 7D 07 01 55 5F 
Tx:001117-01 02 0F FF 00 0A CB 29 
Rx:001118-01 02 02 2D 00 A4 E8 
Tx:001119-01 03 2F FF 00 5A FD 15 
